v1	V(n001)	V(n003)	V(n004)	-I(R1)	-I(R2)
0.000000000000000e+00	2.000000e+00	2.000000e+00	6.816902e-08	-2.065728e-12	2.090011e-12
1.000000000000000e-02	2.000000e+00	2.000000e+00	1.000007e-02	-2.044806e-12	2.089455e-12
2.000000000000000e-02	2.000000e+00	2.000000e+00	2.000007e-02	-2.023323e-12	2.098412e-12
3.000000000000000e-02	2.000000e+00	2.000000e+00	3.000007e-02	-2.001570e-12	2.113295e-12
4.000000000000000e-02	2.000000e+00	2.000000e+00	4.000007e-02	-1.979305e-12	2.139375e-12
5.000000000000000e-02	2.000000e+00	2.000000e+00	5.000006e-02	-1.956371e-12	2.182768e-12
6.000000000000000e-02	2.000000e+00	2.000000e+00	6.000006e-02	-1.932570e-12	2.251137e-12
7.000000000000001e-02	2.000000e+00	2.000000e+00	7.000006e-02	-1.907623e-12	2.355726e-12
8.000000000000000e-02	2.000000e+00	2.000000e+00	8.000007e-02	-1.881220e-12	2.513466e-12
9.000000000000000e-02	2.000000e+00	2.000000e+00	9.000006e-02	-1.852882e-12	2.749873e-12
9.999999999999999e-02	2.000000e+00	2.000000e+00	1.000001e-01	-1.822003e-12	3.101305e-12
1.100000000000000e-01	2.000000e+00	2.000000e+00	1.100001e-01	-1.787812e-12	3.621561e-12
1.200000000000000e-01	2.000000e+00	2.000000e+00	1.200001e-01	-1.749264e-12	4.389162e-12
1.300000000000000e-01	2.000000e+00	2.000000e+00	1.300001e-01	-1.704956e-12	5.520015e-12
1.400000000000000e-01	2.000000e+00	2.000000e+00	1.400001e-01	-1.653029e-12	7.182694e-12
1.500000000000000e-01	2.000000e+00	2.000000e+00	1.500001e-01	-1.590972e-12	9.626376e-12
1.600000000000000e-01	2.000000e+00	2.000000e+00	1.600001e-01	-1.515429e-12	1.321524e-11
1.700000000000000e-01	2.000000e+00	2.000000e+00	1.700000e-01	-1.421873e-12	1.848403e-11
1.800000000000000e-01	2.000000e+00	2.000000e+00	1.800000e-01	-1.304152e-12	2.621582e-11
1.900000000000000e-01	2.000000e+00	2.000000e+00	1.900000e-01	-1.153855e-12	3.756145e-11
2.000000000000000e-01	2.000000e+00	2.000000e+00	2.000000e-01	-9.595022e-13	5.420634e-11
2.100000000000000e-01	2.000000e+00	2.000000e+00	2.100000e-01	-7.053333e-13	7.862413e-11
2.200000000000001e-01	2.000000e+00	2.000000e+00	2.200000e-01	-3.695258e-13	1.144423e-10
2.300000000000001e-01	2.000000e+00	2.000000e+00	2.300000e-01	7.817666e-14	1.669825e-10
2.400000000000001e-01	2.000000e+00	2.000000e+00	2.400000e-01	6.797565e-13	2.440477e-10
2.500000000000001e-01	2.000000e+00	2.000000e+00	2.500000e-01	1.494174e-12	3.570845e-10
2.600000000000001e-01	2.000000e+00	2.000000e+00	2.599999e-01	2.604028e-12	5.228809e-10
2.700000000000001e-01	2.000000e+00	1.999999e+00	2.699999e-01	4.125653e-12	7.660590e-10
2.800000000000001e-01	2.000000e+00	1.999999e+00	2.799998e-01	6.223867e-12	1.122733e-09
2.900000000000001e-01	2.000000e+00	1.999998e+00	2.899997e-01	9.132326e-12	1.645871e-09
3.000000000000001e-01	2.000000e+00	1.999998e+00	2.999996e-01	1.318390e-11	2.413157e-09
3.100000000000001e-01	2.000000e+00	1.999996e+00	3.099994e-01	1.885376e-11	3.538532e-09
3.200000000000001e-01	2.000000e+00	1.999995e+00	3.199991e-01	2.682254e-11	5.189102e-09
3.300000000000001e-01	2.000000e+00	1.999992e+00	3.299987e-01	3.806714e-11	7.609947e-09
3.400000000000001e-01	2.000000e+00	1.999989e+00	3.399982e-01	5.399345e-11	1.116050e-08
3.500000000000001e-01	2.000000e+00	1.999984e+00	3.499975e-01	7.662823e-11	1.636786e-08
3.600000000000002e-01	2.000000e+00	1.999976e+00	3.599964e-01	1.088998e-10	2.400500e-08
3.700000000000002e-01	2.000000e+00	1.999965e+00	3.699949e-01	1.550443e-10	3.520533e-08
3.800000000000002e-01	2.000000e+00	1.999948e+00	3.799927e-01	2.212012e-10	5.163060e-08
3.900000000000002e-01	2.000000e+00	1.999924e+00	3.899896e-01	3.162768e-10	7.571675e-08
4.000000000000002e-01	2.000000e+00	1.999889e+00	3.999850e-01	4.532059e-10	1.110337e-07
4.100000000000002e-01	2.000000e+00	1.999837e+00	4.099785e-01	6.507873e-10	1.628115e-07
4.200000000000002e-01	2.000000e+00	1.999761e+00	4.199691e-01	9.363560e-10	2.387081e-07
4.300000000000002e-01	2.000000e+00	1.999650e+00	4.299555e-01	1.349663e-09	3.499281e-07
4.400000000000002e-01	2.000000e+00	1.999487e+00	4.399357e-01	1.948499e-09	5.128471e-07
4.500000000000002e-01	2.000000e+00	1.999249e+00	4.499070e-01	2.816799e-09	7.513594e-07
4.600000000000002e-01	2.000000e+00	1.998900e+00	4.598655e-01	4.076266e-09	1.100249e-06
4.700000000000003e-01	2.000000e+00	1.998390e+00	4.698052e-01	5.902852e-09	1.609978e-06
4.800000000000003e-01	2.000000e+00	1.997647e+00	4.797179e-01	8.549809e-09	2.353391e-06
4.900000000000003e-01	2.000000e+00	1.996565e+00	4.895915e-01	1.237920e-08	3.434892e-06
5.000000000000002e-01	2.000000e+00	1.994997e+00	4.994092e-01	1.790348e-08	5.002562e-06
5.100000000000002e-01	2.000000e+00	1.992737e+00	5.091473e-01	2.583755e-08	7.263337e-06
5.200000000000002e-01	2.000000e+00	1.989500e+00	5.187738e-01	3.715818e-08	1.050031e-05
5.300000000000002e-01	2.000000e+00	1.984911e+00	5.282457e-01	5.316112e-08	1.508940e-05
5.400000000000003e-01	2.000000e+00	1.978490e+00	5.375086e-01	7.549639e-08	2.150949e-05
5.500000000000003e-01	2.000000e+00	1.969663e+00	5.464970e-01	1.061508e-07	3.033712e-05
5.600000000000003e-01	2.000000e+00	1.957784e+00	5.551376e-01	1.473439e-07	4.221572e-05
5.700000000000003e-01	2.000000e+00	1.942206e+00	5.633564e-01	2.013208e-07	5.779447e-05
5.800000000000003e-01	2.000000e+00	1.922355e+00	5.710877e-01	2.700686e-07	7.764481e-05
5.900000000000003e-01	2.000000e+00	1.897822e+00	5.782838e-01	3.550341e-07	1.021775e-04
6.000000000000003e-01	2.000000e+00	1.868411e+00	5.849210e-01	4.569399e-07	1.315888e-04
6.100000000000003e-01	2.000000e+00	1.834148e+00	5.910001e-01	5.757552e-07	1.658525e-04
6.200000000000003e-01	2.000000e+00	1.795246e+00	5.965432e-01	7.108122e-07	2.047543e-04
6.300000000000003e-01	2.000000e+00	1.752049e+00	6.015870e-01	8.610005e-07	2.479506e-04
6.400000000000003e-01	2.000000e+00	1.704972e+00	6.061760e-01	1.024970e-06	2.950279e-04
6.500000000000004e-01	2.000000e+00	1.654448e+00	6.103572e-01	1.201298e-06	3.455524e-04
6.600000000000004e-01	2.000000e+00	1.600897e+00	6.141763e-01	1.388599e-06	3.991029e-04
6.700000000000004e-01	2.000000e+00	1.544711e+00	6.176757e-01	1.585587e-06	4.552895e-04
6.800000000000004e-01	2.000000e+00	1.486238e+00	6.208934e-01	1.791108e-06	5.137622e-04
6.900000000000004e-01	2.000000e+00	1.425788e+00	6.238632e-01	2.004146e-06	5.742123e-04
7.000000000000004e-01	2.000000e+00	1.363629e+00	6.266142e-01	2.223813e-06	6.363714e-04
7.100000000000004e-01	2.000000e+00	1.299993e+00	6.291717e-01	2.449343e-06	7.000068e-04
7.200000000000004e-01	2.000000e+00	1.235082e+00	6.315576e-01	2.680072e-06	7.649177e-04
7.300000000000004e-01	2.000000e+00	1.169069e+00	6.337908e-01	2.915430e-06	8.309312e-04
7.400000000000004e-01	2.000000e+00	1.102102e+00	6.358876e-01	3.154923e-06	8.978977e-04
7.500000000000004e-01	2.000000e+00	1.034312e+00	6.378619e-01	3.398123e-06	9.656882e-04
7.600000000000005e-01	2.000000e+00	9.658093e-01	6.397262e-01	3.644662e-06	1.034191e-03
7.700000000000005e-01	2.000000e+00	8.966922e-01	6.414909e-01	3.894216e-06	1.103308e-03
7.800000000000005e-01	2.000000e+00	8.270454e-01	6.431653e-01	4.146504e-06	1.172955e-03
7.900000000000005e-01	2.000000e+00	7.569433e-01	6.447577e-01	4.401280e-06	1.243057e-03
8.000000000000005e-01	2.000000e+00	6.864510e-01	6.462753e-01	4.658325e-06	1.313549e-03
8.100000000000005e-01	2.000000e+00	6.156261e-01	6.477242e-01	4.917449e-06	1.384374e-03
8.200000000000005e-01	2.000000e+00	5.445197e-01	6.491101e-01	5.178482e-06	1.455480e-03
8.300000000000005e-01	2.000000e+00	4.731803e-01	6.504379e-01	5.441275e-06	1.526820e-03
8.400000000000005e-01	2.000000e+00	4.016842e-01	6.517115e-01	5.705713e-06	1.598316e-03
8.500000000000005e-01	2.000000e+00	3.304801e-01	6.529281e-01	5.971877e-06	1.669520e-03
8.600000000000005e-01	2.000000e+00	2.636128e-01	6.540288e-01	6.241552e-06	1.736387e-03
8.700000000000006e-01	2.000000e+00	2.161099e-01	6.547939e-01	6.521396e-06	1.783890e-03
8.800000000000006e-01	2.000000e+00	1.904482e-01	6.552116e-01	6.811768e-06	1.809552e-03
8.900000000000006e-01	2.000000e+00	1.751241e-01	6.554695e-01	7.106984e-06	1.824876e-03
9.000000000000006e-01	2.000000e+00	1.647438e-01	6.556521e-01	7.404482e-06	1.835256e-03
9.100000000000006e-01	2.000000e+00	1.568606e-01	6.557969e-01	7.703125e-06	1.843139e-03
9.200000000000006e-01	2.000000e+00	1.507574e-01	6.559150e-01	8.002575e-06	1.849243e-03
9.300000000000006e-01	2.000000e+00	1.457166e-01	6.560173e-01	8.302506e-06	1.854283e-03
9.400000000000006e-01	2.000000e+00	1.414179e-01	6.561085e-01	8.602772e-06	1.858582e-03
9.500000000000006e-01	2.000000e+00	1.376857e-01	6.561913e-01	8.903293e-06	1.862314e-03
9.600000000000006e-01	2.000000e+00	1.343939e-01	6.562676e-01	9.204010e-06	1.865606e-03
9.700000000000006e-01	2.000000e+00	1.314525e-01	6.563388e-01	9.504884e-06	1.868548e-03
9.800000000000006e-01	2.000000e+00	1.287959e-01	6.564058e-01	9.805884e-06	1.871204e-03
9.900000000000007e-01	2.000000e+00	1.263754e-01	6.564693e-01	1.010699e-05	1.873625e-03
1.000000000000001e+00	2.000000e+00	1.241535e-01	6.565299e-01	1.040818e-05	1.875847e-03
1.010000000000001e+00	2.000000e+00	1.221009e-01	6.565880e-01	1.070945e-05	1.877899e-03
1.020000000000001e+00	2.000000e+00	1.201943e-01	6.566440e-01	1.101079e-05	1.879806e-03
1.030000000000001e+00	2.000000e+00	1.184148e-01	6.566981e-01	1.131218e-05	1.881585e-03
1.040000000000001e+00	2.000000e+00	1.167470e-01	6.567506e-01	1.161362e-05	1.883253e-03
1.050000000000001e+00	2.000000e+00	1.151781e-01	6.568016e-01	1.191510e-05	1.884822e-03
1.060000000000001e+00	2.000000e+00	1.136973e-01	6.568514e-01	1.221663e-05	1.886303e-03
1.070000000000001e+00	2.000000e+00	1.122955e-01	6.568999e-01	1.251818e-05	1.887704e-03
1.080000000000001e+00	2.000000e+00	1.109650e-01	6.569475e-01	1.281977e-05	1.889035e-03
1.090000000000001e+00	2.000000e+00	1.096990e-01	6.569941e-01	1.312139e-05	1.890301e-03
1.100000000000001e+00	2.000000e+00	1.084918e-01	6.570398e-01	1.342304e-05	1.891508e-03
1.110000000000001e+00	2.000000e+00	1.073382e-01	6.570848e-01	1.372470e-05	1.892662e-03
1.120000000000001e+00	2.000000e+00	1.062340e-01	6.571290e-01	1.402639e-05	1.893766e-03
1.130000000000001e+00	2.000000e+00	1.051751e-01	6.571726e-01	1.432810e-05	1.894825e-03
1.140000000000001e+00	2.000000e+00	1.041581e-01	6.572155e-01	1.462983e-05	1.895842e-03
1.150000000000001e+00	2.000000e+00	1.031800e-01	6.572579e-01	1.493158e-05	1.896820e-03
1.160000000000001e+00	2.000000e+00	1.022379e-01	6.572997e-01	1.523334e-05	1.897762e-03
1.170000000000001e+00	2.000000e+00	1.013294e-01	6.573410e-01	1.553512e-05	1.898671e-03
1.180000000000001e+00	2.000000e+00	1.004523e-01	6.573819e-01	1.583691e-05	1.899548e-03
1.190000000000001e+00	2.000000e+00	9.960447e-02	6.574223e-01	1.613872e-05	1.900395e-03
1.200000000000001e+00	2.000000e+00	9.878419e-02	6.574624e-01	1.644054e-05	1.901216e-03
1.210000000000001e+00	2.000000e+00	9.798975e-02	6.575019e-01	1.674236e-05	1.902010e-03
1.220000000000001e+00	2.000000e+00	9.721965e-02	6.575412e-01	1.704421e-05	1.902780e-03
1.230000000000001e+00	2.000000e+00	9.647247e-02	6.575801e-01	1.734606e-05	1.903528e-03
1.240000000000001e+00	2.000000e+00	9.574697e-02	6.576187e-01	1.764792e-05	1.904253e-03
1.250000000000001e+00	2.000000e+00	9.504196e-02	6.576570e-01	1.794979e-05	1.904958e-03
1.260000000000001e+00	2.000000e+00	9.435637e-02	6.576950e-01	1.825167e-05	1.905644e-03
1.270000000000001e+00	2.000000e+00	9.368920e-02	6.577327e-01	1.855356e-05	1.906311e-03
1.280000000000001e+00	2.000000e+00	9.303951e-02	6.577701e-01	1.885545e-05	1.906961e-03
1.290000000000001e+00	2.000000e+00	9.240647e-02	6.578073e-01	1.915735e-05	1.907594e-03
1.300000000000001e+00	2.000000e+00	9.178928e-02	6.578442e-01	1.945927e-05	1.908211e-03
1.310000000000001e+00	2.000000e+00	9.118719e-02	6.578809e-01	1.976118e-05	1.908813e-03
1.320000000000001e+00	2.000000e+00	9.059952e-02	6.579174e-01	2.006311e-05	1.909400e-03
1.330000000000001e+00	2.000000e+00	9.002563e-02	6.579536e-01	2.036504e-05	1.909974e-03
1.340000000000001e+00	2.000000e+00	8.946492e-02	6.579897e-01	2.066698e-05	1.910535e-03
1.350000000000001e+00	2.000000e+00	8.891681e-02	6.580255e-01	2.096892e-05	1.911083e-03
1.360000000000001e+00	2.000000e+00	8.838078e-02	6.580611e-01	2.127087e-05	1.911619e-03
1.370000000000001e+00	2.000000e+00	8.785635e-02	6.580966e-01	2.157283e-05	1.912144e-03
1.380000000000001e+00	2.000000e+00	8.734304e-02	6.581319e-01	2.187479e-05	1.912657e-03
1.390000000000001e+00	2.000000e+00	8.684041e-02	6.581670e-01	2.217676e-05	1.913160e-03
1.400000000000001e+00	2.000000e+00	8.634806e-02	6.582019e-01	2.247873e-05	1.913652e-03
1.410000000000001e+00	2.000000e+00	8.586559e-02	6.582367e-01	2.278070e-05	1.914134e-03
1.420000000000001e+00	2.000000e+00	8.539262e-02	6.582714e-01	2.308269e-05	1.914607e-03
1.430000000000001e+00	2.000000e+00	8.492883e-02	6.583059e-01	2.338467e-05	1.915071e-03
1.440000000000001e+00	2.000000e+00	8.447387e-02	6.583402e-01	2.368666e-05	1.915526e-03
1.450000000000001e+00	2.000000e+00	8.402743e-02	6.583744e-01	2.398866e-05	1.915973e-03
1.460000000000001e+00	2.000000e+00	8.358923e-02	6.584084e-01	2.429065e-05	1.916411e-03
1.470000000000001e+00	2.000000e+00	8.315897e-02	6.584424e-01	2.459266e-05	1.916841e-03
1.480000000000001e+00	2.000000e+00	8.273639e-02	6.584761e-01	2.489466e-05	1.917264e-03
1.490000000000001e+00	2.000000e+00	8.232123e-02	6.585098e-01	2.519667e-05	1.917679e-03
1.500000000000000e+00	2.000000e+00	8.191327e-02	6.585433e-01	2.549869e-05	1.918087e-03
