v1	V(n001)	V(n003)	V(n004)	-I(R1)	-I(R2)
0.000000000000000e+00	3.000000e+00	3.000000e+00	1.011690e-07	-3.065728e-12	3.090202e-12
1.000000000000000e-02	3.000000e+00	3.000000e+00	1.000010e-02	-3.044806e-12	3.089791e-12
2.000000000000000e-02	3.000000e+00	3.000000e+00	2.000010e-02	-3.023323e-12	3.099048e-12
3.000000000000000e-02	3.000000e+00	3.000000e+00	3.000010e-02	-3.001570e-12	3.114375e-12
4.000000000000000e-02	3.000000e+00	3.000000e+00	4.000010e-02	-2.979305e-12	3.140899e-12
5.000000000000000e-02	3.000000e+00	3.000000e+00	5.000010e-02	-2.956371e-12	3.185180e-12
6.000000000000000e-02	3.000000e+00	3.000000e+00	6.000010e-02	-2.932570e-12	3.254882e-12
7.000000000000001e-02	3.000000e+00	3.000000e+00	7.000010e-02	-2.907623e-12	3.361246e-12
8.000000000000000e-02	3.000000e+00	3.000000e+00	8.000010e-02	-2.881220e-12	3.521429e-12
9.000000000000000e-02	3.000000e+00	3.000000e+00	9.000009e-02	-2.852882e-12	3.761612e-12
9.999999999999999e-02	3.000000e+00	3.000000e+00	1.000001e-01	-2.822003e-12	4.118596e-12
1.100000000000000e-01	3.000000e+00	3.000000e+00	1.100001e-01	-2.787812e-12	4.647067e-12
1.200000000000000e-01	3.000000e+00	3.000000e+00	1.200001e-01	-2.749265e-12	5.426660e-12
1.300000000000000e-01	3.000000e+00	3.000000e+00	1.300001e-01	-2.704956e-12	6.575277e-12
1.400000000000000e-01	3.000000e+00	3.000000e+00	1.400001e-01	-2.653029e-12	8.263717e-12
1.500000000000000e-01	3.000000e+00	3.000000e+00	1.500001e-01	-2.590972e-12	1.074537e-11
1.600000000000000e-01	3.000000e+00	3.000000e+00	1.600001e-01	-2.515429e-12	1.438998e-11
1.700000000000000e-01	3.000000e+00	3.000000e+00	1.700001e-01	-2.421874e-12	1.974071e-11
1.800000000000000e-01	3.000000e+00	3.000000e+00	1.800001e-01	-2.304154e-12	2.759240e-11
1.900000000000000e-01	3.000000e+00	3.000000e+00	1.900001e-01	-2.153857e-12	3.911436e-11
2.000000000000000e-01	3.000000e+00	3.000000e+00	2.000001e-01	-1.959505e-12	5.601773e-11
2.100000000000000e-01	3.000000e+00	3.000000e+00	2.100001e-01	-1.705338e-12	8.081480e-11
2.200000000000001e-01	3.000000e+00	3.000000e+00	2.200000e-01	-1.369484e-12	1.171895e-10
2.300000000000001e-01	3.000000e+00	3.000000e+00	2.300000e-01	-9.218332e-13	1.705466e-10
2.400000000000001e-01	3.000000e+00	3.000000e+00	2.400000e-01	-3.202045e-13	2.488105e-10
2.500000000000001e-01	3.000000e+00	3.000000e+00	2.500000e-01	4.942087e-13	3.636065e-10
2.600000000000001e-01	3.000000e+00	3.000000e+00	2.600000e-01	1.603997e-12	5.319846e-10
2.700000000000001e-01	3.000000e+00	2.999999e+00	2.699999e-01	3.125668e-12	7.789511e-10
2.800000000000001e-01	3.000000e+00	2.999999e+00	2.799998e-01	5.223864e-12	1.141185e-09
2.900000000000001e-01	3.000000e+00	2.999998e+00	2.899997e-01	8.132359e-12	1.672480e-09
3.000000000000001e-01	3.000000e+00	2.999998e+00	2.999996e-01	1.218389e-11	2.451740e-09
3.100000000000001e-01	3.000000e+00	2.999996e+00	3.099994e-01	1.785382e-11	3.594684e-09
3.200000000000001e-01	3.000000e+00	2.999995e+00	3.199992e-01	2.582259e-11	5.271035e-09
3.300000000000001e-01	3.000000e+00	2.999992e+00	3.299988e-01	3.706719e-11	7.729716e-09
3.400000000000001e-01	3.000000e+00	2.999989e+00	3.399982e-01	5.299352e-11	1.133578e-08
3.500000000000001e-01	3.000000e+00	2.999983e+00	3.499975e-01	7.562839e-11	1.662462e-08
3.600000000000002e-01	3.000000e+00	2.999976e+00	3.599964e-01	1.078998e-10	2.438131e-08
3.700000000000002e-01	3.000000e+00	2.999964e+00	3.699949e-01	1.540446e-10	3.575706e-08
3.800000000000002e-01	3.000000e+00	2.999948e+00	3.799927e-01	2.202015e-10	5.243972e-08
3.900000000000002e-01	3.000000e+00	2.999923e+00	3.899896e-01	3.152771e-10	7.690352e-08
4.000000000000002e-01	3.000000e+00	2.999887e+00	3.999851e-01	4.522064e-10	1.127745e-07
4.100000000000002e-01	3.000000e+00	2.999835e+00	4.099786e-01	6.497881e-10	1.653650e-07
4.200000000000002e-01	3.000000e+00	2.999758e+00	4.199691e-01	9.353570e-10	2.424535e-07
4.300000000000002e-01	3.000000e+00	2.999645e+00	4.299555e-01	1.348665e-09	3.554211e-07
4.400000000000002e-01	3.000000e+00	2.999479e+00	4.399357e-01	1.947501e-09	5.209013e-07
4.500000000000002e-01	3.000000e+00	2.999237e+00	4.499071e-01	2.815802e-09	7.631654e-07
4.600000000000002e-01	3.000000e+00	2.998883e+00	4.598655e-01	4.075269e-09	1.117545e-06
4.700000000000003e-01	3.000000e+00	2.998365e+00	4.698052e-01	5.901856e-09	1.635300e-06
4.800000000000003e-01	3.000000e+00	2.997610e+00	4.797179e-01	8.548814e-09	2.390426e-06
4.900000000000003e-01	3.000000e+00	2.996511e+00	4.895915e-01	1.237820e-08	3.488973e-06
5.000000000000002e-01	3.000000e+00	2.994919e+00	4.994092e-01	1.790247e-08	5.081366e-06
5.100000000000002e-01	3.000000e+00	2.992622e+00	5.091474e-01	2.583653e-08	7.377808e-06
5.200000000000002e-01	3.000000e+00	2.989334e+00	5.187738e-01	3.715712e-08	1.066588e-05
5.300000000000002e-01	3.000000e+00	2.984673e+00	5.282457e-01	5.315998e-08	1.532743e-05
5.400000000000003e-01	3.000000e+00	2.978151e+00	5.375087e-01	7.549507e-08	2.184892e-05
5.500000000000003e-01	3.000000e+00	2.969184e+00	5.464971e-01	1.061491e-07	3.081603e-05
5.600000000000003e-01	3.000000e+00	2.957118e+00	5.551378e-01	1.473416e-07	4.288235e-05
5.700000000000003e-01	3.000000e+00	2.941293e+00	5.633565e-01	2.013174e-07	5.870733e-05
5.800000000000003e-01	3.000000e+00	2.921129e+00	5.710879e-01	2.700634e-07	7.887146e-05
5.900000000000003e-01	3.000000e+00	2.896208e+00	5.782841e-01	3.550264e-07	1.037920e-04
6.000000000000003e-01	3.000000e+00	2.866332e+00	5.849214e-01	4.569285e-07	1.336683e-04
6.100000000000003e-01	3.000000e+00	2.831526e+00	5.910006e-01	5.757390e-07	1.684736e-04
6.200000000000003e-01	3.000000e+00	2.792009e+00	5.965439e-01	7.107900e-07	2.079906e-04
6.300000000000003e-01	3.000000e+00	2.748130e+00	6.015880e-01	8.609711e-07	2.518698e-04
6.400000000000003e-01	3.000000e+00	2.700308e+00	6.061772e-01	1.024933e-06	2.996916e-04
6.500000000000004e-01	3.000000e+00	2.648985e+00	6.103587e-01	1.201251e-06	3.510152e-04
6.600000000000004e-01	3.000000e+00	2.594587e+00	6.141781e-01	1.388541e-06	4.054127e-04
6.700000000000004e-01	3.000000e+00	2.537512e+00	6.176779e-01	1.585518e-06	4.624882e-04
6.800000000000004e-01	3.000000e+00	2.478114e+00	6.208961e-01	1.791028e-06	5.218859e-04
6.900000000000004e-01	3.000000e+00	2.416708e+00	6.238663e-01	2.004053e-06	5.832926e-04
7.000000000000004e-01	3.000000e+00	2.353565e+00	6.266177e-01	2.223707e-06	6.464353e-04
7.100000000000004e-01	3.000000e+00	2.288922e+00	6.291756e-01	2.449224e-06	7.110778e-04
7.200000000000004e-01	3.000000e+00	2.222984e+00	6.315620e-01	2.679939e-06	7.770162e-04
7.300000000000004e-01	3.000000e+00	2.155925e+00	6.337957e-01	2.915283e-06	8.440746e-04
7.400000000000004e-01	3.000000e+00	2.087898e+00	6.358929e-01	3.154761e-06	9.121014e-04
7.500000000000004e-01	3.000000e+00	2.019035e+00	6.378677e-01	3.397947e-06	9.809653e-04
7.600000000000005e-01	3.000000e+00	1.949447e+00	6.397324e-01	3.644471e-06	1.050553e-03
7.700000000000005e-01	3.000000e+00	1.879236e+00	6.414977e-01	3.894010e-06	1.120764e-03
7.800000000000005e-01	3.000000e+00	1.808486e+00	6.431727e-01	4.146283e-06	1.191514e-03
7.900000000000005e-01	3.000000e+00	1.737273e+00	6.447656e-01	4.401043e-06	1.262727e-03
8.000000000000005e-01	3.000000e+00	1.665664e+00	6.462836e-01	4.658073e-06	1.334336e-03
8.100000000000005e-01	3.000000e+00	1.593717e+00	6.477330e-01	4.917181e-06	1.406283e-03
8.200000000000005e-01	3.000000e+00	1.521483e+00	6.491194e-01	5.178199e-06	1.478517e-03
8.300000000000005e-01	3.000000e+00	1.449009e+00	6.504479e-01	5.440973e-06	1.550991e-03
8.400000000000005e-01	3.000000e+00	1.376335e+00	6.517227e-01	5.705372e-06	1.623665e-03
8.500000000000005e-01	3.000000e+00	1.303497e+00	6.529480e-01	5.971273e-06	1.696503e-03
8.600000000000005e-01	3.000000e+00	1.230528e+00	6.541272e-01	6.238569e-06	1.769472e-03
8.700000000000006e-01	3.000000e+00	1.157457e+00	6.552637e-01	6.507162e-06	1.842543e-03
8.800000000000006e-01	3.000000e+00	1.084310e+00	6.563602e-01	6.776964e-06	1.915690e-03
8.900000000000006e-01	3.000000e+00	1.011110e+00	6.574194e-01	7.047896e-06	1.988890e-03
9.000000000000006e-01	3.000000e+00	9.378794e-01	6.584437e-01	7.319886e-06	2.062121e-03
9.100000000000006e-01	3.000000e+00	8.646367e-01	6.594354e-01	7.592866e-06	2.135363e-03
9.200000000000006e-01	3.000000e+00	7.913994e-01	6.603963e-01	7.866779e-06	2.208601e-03
9.300000000000006e-01	3.000000e+00	7.181836e-01	6.613283e-01	8.141568e-06	2.281816e-03
9.400000000000006e-01	3.000000e+00	6.450034e-01	6.622329e-01	8.417183e-06	2.354997e-03
9.500000000000006e-01	3.000000e+00	5.718724e-01	6.631119e-01	8.693578e-06	2.428128e-03
9.600000000000006e-01	3.000000e+00	4.988047e-01	6.639665e-01	8.970711e-06	2.501195e-03
9.700000000000006e-01	3.000000e+00	4.258382e-01	6.647978e-01	9.248552e-06	2.574162e-03
9.800000000000006e-01	3.000000e+00	3.532907e-01	6.656036e-01	9.527163e-06	2.646709e-03
9.900000000000007e-01	3.000000e+00	2.843655e-01	6.663517e-01	9.807522e-06	2.715634e-03
1.000000000000001e+00	3.000000e+00	2.333747e-01	6.668985e-01	1.009399e-05	2.766625e-03
1.010000000000001e+00	3.000000e+00	2.055660e-01	6.672007e-01	1.038786e-05	2.794434e-03
1.020000000000001e+00	3.000000e+00	1.893046e-01	6.673838e-01	1.068534e-05	2.810695e-03
1.030000000000001e+00	3.000000e+00	1.784661e-01	6.675114e-01	1.098450e-05	2.821534e-03
1.040000000000001e+00	3.000000e+00	1.702847e-01	6.676121e-01	1.128448e-05	2.829715e-03
1.050000000000001e+00	3.000000e+00	1.639977e-01	6.676937e-01	1.158504e-05	2.836002e-03
1.060000000000001e+00	3.000000e+00	1.588241e-01	6.677640e-01	1.188594e-05	2.841176e-03
1.070000000000001e+00	3.000000e+00	1.544210e-01	6.678267e-01	1.218707e-05	2.845579e-03
1.080000000000001e+00	3.000000e+00	1.506048e-01	6.678835e-01	1.248838e-05	2.849395e-03
1.090000000000001e+00	3.000000e+00	1.472435e-01	6.679357e-01	1.278983e-05	2.852757e-03
1.100000000000001e+00	3.000000e+00	1.442431e-01	6.679844e-01	1.309138e-05	2.855757e-03
1.110000000000001e+00	3.000000e+00	1.415355e-01	6.680303e-01	1.339302e-05	2.858464e-03
1.120000000000001e+00	3.000000e+00	1.390700e-01	6.680737e-01	1.369474e-05	2.860930e-03
1.130000000000001e+00	3.000000e+00	1.368078e-01	6.681150e-01	1.399652e-05	2.863192e-03
1.140000000000001e+00	3.000000e+00	1.347188e-01	6.681547e-01	1.429834e-05	2.865281e-03
1.150000000000001e+00	3.000000e+00	1.327788e-01	6.681929e-01	1.460021e-05	2.867221e-03
1.160000000000001e+00	3.000000e+00	1.309685e-01	6.682298e-01	1.490213e-05	2.869031e-03
1.170000000000001e+00	3.000000e+00	1.292721e-01	6.682656e-01	1.520407e-05	2.870728e-03
1.180000000000001e+00	3.000000e+00	1.276764e-01	6.683005e-01	1.550605e-05	2.872324e-03
1.190000000000001e+00	3.000000e+00	1.261702e-01	6.683344e-01	1.580805e-05	2.873830e-03
1.200000000000001e+00	3.000000e+00	1.247445e-01	6.683676e-01	1.611007e-05	2.875255e-03
1.210000000000001e+00	3.000000e+00	1.233912e-01	6.684000e-01	1.641212e-05	2.876609e-03
1.220000000000001e+00	3.000000e+00	1.221034e-01	6.684319e-01	1.671419e-05	2.877897e-03
1.230000000000001e+00	3.000000e+00	1.208753e-01	6.684631e-01	1.701627e-05	2.879125e-03
1.240000000000001e+00	3.000000e+00	1.197017e-01	6.684937e-01	1.731837e-05	2.880298e-03
1.250000000000001e+00	3.000000e+00	1.185780e-01	6.685240e-01	1.762048e-05	2.881422e-03
1.260000000000001e+00	3.000000e+00	1.175004e-01	6.685537e-01	1.792261e-05	2.882499e-03
1.270000000000001e+00	3.000000e+00	1.164653e-01	6.685830e-01	1.822475e-05	2.883535e-03
1.280000000000001e+00	3.000000e+00	1.154695e-01	6.686120e-01	1.852691e-05	2.884530e-03
1.290000000000001e+00	3.000000e+00	1.145102e-01	6.686406e-01	1.882907e-05	2.885490e-03
1.300000000000001e+00	3.000000e+00	1.135850e-01	6.686689e-01	1.913125e-05	2.886415e-03
1.310000000000001e+00	3.000000e+00	1.126915e-01	6.686968e-01	1.943343e-05	2.887308e-03
1.320000000000001e+00	3.000000e+00	1.118278e-01	6.687244e-01	1.973562e-05	2.888172e-03
1.330000000000001e+00	3.000000e+00	1.109919e-01	6.687518e-01	2.003782e-05	2.889008e-03
1.340000000000001e+00	3.000000e+00	1.101821e-01	6.687790e-01	2.034003e-05	2.889818e-03
1.350000000000001e+00	3.000000e+00	1.093969e-01	6.688058e-01	2.064225e-05	2.890603e-03
1.360000000000001e+00	3.000000e+00	1.086350e-01	6.688324e-01	2.094447e-05	2.891365e-03
1.370000000000001e+00	3.000000e+00	1.078950e-01	6.688589e-01	2.124670e-05	2.892105e-03
1.380000000000001e+00	3.000000e+00	1.071757e-01	6.688851e-01	2.154894e-05	2.892824e-03
1.390000000000001e+00	3.000000e+00	1.064760e-01	6.689111e-01	2.185118e-05	2.893524e-03
1.400000000000001e+00	3.000000e+00	1.057950e-01	6.689370e-01	2.215343e-05	2.894205e-03
1.410000000000001e+00	3.000000e+00	1.051316e-01	6.689626e-01	2.245568e-05	2.894868e-03
1.420000000000001e+00	3.000000e+00	1.044851e-01	6.689881e-01	2.275794e-05	2.895515e-03
1.430000000000001e+00	3.000000e+00	1.038546e-01	6.690134e-01	2.306020e-05	2.896145e-03
1.440000000000001e+00	3.000000e+00	1.032394e-01	6.690386e-01	2.336247e-05	2.896761e-03
1.450000000000001e+00	3.000000e+00	1.026387e-01	6.690636e-01	2.366474e-05	2.897361e-03
1.460000000000001e+00	3.000000e+00	1.020519e-01	6.690885e-01	2.396701e-05	2.897948e-03
1.470000000000001e+00	3.000000e+00	1.014785e-01	6.691133e-01	2.426929e-05	2.898521e-03
1.480000000000001e+00	3.000000e+00	1.009178e-01	6.691379e-01	2.457158e-05	2.899082e-03
1.490000000000001e+00	3.000000e+00	1.003693e-01	6.691624e-01	2.487387e-05	2.899631e-03
1.500000000000000e+00	3.000000e+00	9.983256e-02	6.691868e-01	2.517616e-05	2.900167e-03
